T348C 020:522 SEGGER J-Link V5.02c Log File (0000ms, 1631ms total)
T348C 020:522 DLL Compiled: Sep 10 2015 17:39:31 (0000ms, 1631ms total)
T348C 020:522 Logging started @ 2022-10-06 22:05 (0000ms, 1631ms total)
T348C 020:522 JLINK_SetWarnOutHandler(...) (0000ms, 1631ms total)
T348C 020:522 JLINK_OpenEx(...)
Firmware: J-Link J-Link V21 compiled Oct 24 2016 00:00:00
Hardware: V1.00
S/N: 779291912Device "UNSPECIFIED" selected.  returns O.K. (0299ms, 1930ms total)
T348C 020:821 JLINK_GetEmuCaps()  returns 0xD8EA5A73 (0000ms, 1930ms total)
T348C 020:822 JLINK_TIF_GetAvailable(...) (0001ms, 1931ms total)
T348C 020:823 JLINK_SetErrorOutHandler(...) (0000ms, 1931ms total)
T348C 020:823 JLINK_ExecCommand("ProjectFile = "D:\工作文档\匿名四轴\AnoPublic\ANO_PioneerPro-088\JLinkSettings.ini"", ...)Device "UNSPECIFIED" selected.  returns 0x00 (0014ms, 1945ms total)
T348C 020:844 JLINK_ExecCommand("Device = STM32F407VGTx", ...)Device "UNSPECIFIED" selected.  returns 0x00 (0015ms, 1960ms total)
T348C 020:859 JLINK_ExecCommand("DisableConnectionTimeout", ...)  returns 0x01 (0000ms, 1960ms total)
T348C 020:859 JLINK_GetHardwareVersion()  returns 0x2710 (0000ms, 1960ms total)
T348C 020:859 JLINK_GetDLLVersion()  returns 50203 (0000ms, 1960ms total)
T348C 020:859 JLINK_GetFirmwareString(...) (0000ms, 1960ms total)
T348C 020:888 JLINK_GetDLLVersion()  returns 50203 (0000ms, 1960ms total)
T348C 020:888 JLINK_GetCompileDateTime() (0000ms, 1960ms total)
T348C 020:894 JLINK_GetFirmwareString(...) (0000ms, 1960ms total)
T348C 020:902 JLINK_GetHardwareVersion()  returns 0x2710 (0000ms, 1960ms total)
T348C 020:916 JLINK_TIF_Select(JLINKARM_TIF_SWD)  returns 0x00 (0002ms, 1962ms total)
T348C 020:918 JLINK_SetSpeed(5000) (0000ms, 1962ms total)
T348C 020:919 JLINK_GetId() >0x108 TIF>Found SWD-DP with ID 0x4BA01477 >0x0D TIF> >0x21 TIF> >0x0D TIF> >0x28 TIF> >0x0D TIF> >0x28 TIF> >0x0D TIF> >0x21 TIF> >0x0D TIF> >0x28 TIF> >0x0D TIF> >0x21 TIF> >0x0D TIF> >0x21 TIF> >0x0D TIF> >0x21 TIF> >0x0D TIF> >0x21 TIF> >0x0D TIF> >0x28 TIF> >0x0D TIF> >0x28 TIF> >0x0D TIF> >0x21 TIF> >0x0D TIF> >0x28 TIF> >0x0D TIF> >0x28 TIF> >0x0D TIF> >0x28 TIF> >0x0D TIF> >0x21 TIF> >0x0D TIF> >0x21 TIF> >0x0D TIF> >0x28 TIF> >0x0D TIF> >0x21 TIF> >0x0D TIF>
 >0x21 TIF>Found Cortex-M4 r0p1, Little endian. -- CPU_ReadMem(4 bytes @ 0xE000EDF0) -- CPU_WriteMem(4 bytes @ 0xE000EDF0) -- CPU_ReadMem(4 bytes @ 0xE0002000)FPUnit: 6 code (BP) slots and 2 literal slots -- CPU_ReadMem(4 bytes @ 0xE000EDFC) -- CPU_WriteMem(4 bytes @ 0xE000EDFC) -- CPU_ReadMem(4 bytes @ 0xE0001000) -- CPU_WriteMem(4 bytes @ 0xE0001000) -- CPU_ReadMem(4 bytes @ 0xE000ED88) -- CPU_WriteMem(4 bytes @ 0xE000ED88) -- CPU_ReadMem(4 bytes @ 0xE000ED88) -- CPU_WriteMem(4 bytes @ 0xE000ED88)
CoreSight components:ROMTbl 0 @ E00FF000 -- CPU_ReadMem(16 bytes @ 0xE00FF000) -- CPU_ReadMem(16 bytes @ 0xE000EFF0) -- CPU_ReadMem(16 bytes @ 0xE000EFE0)ROMTbl 0 [0]: FFF0F000, CID: B105E00D, PID: 000BB00C SCS -- CPU_ReadMem(16 bytes @ 0xE0001FF0) -- CPU_ReadMem(16 bytes @ 0xE0001FE0)ROMTbl 0 [1]: FFF02000, CID: B105E00D, PID: 003BB002 DWT -- CPU_ReadMem(16 bytes @ 0xE0002FF0) -- CPU_ReadMem(16 bytes @ 0xE0002FE0)ROMTbl 0 [2]: FFF03000, CID: B105E00D, PID: 002BB003 FPB
 -- CPU_ReadMem(16 bytes @ 0xE0000FF0) -- CPU_ReadMem(16 bytes @ 0xE0000FE0)ROMTbl 0 [3]: FFF01000, CID: B105E00D, PID: 003BB001 ITM -- CPU_ReadMem(16 bytes @ 0xE00FF010) -- CPU_ReadMem(16 bytes @ 0xE0040FF0) -- CPU_ReadMem(16 bytes @ 0xE0040FE0)ROMTbl 0 [4]: FFF41000, CID: B105900D, PID: 000BB9A1 TPIU -- CPU_ReadMem(16 bytes @ 0xE0041FF0) -- CPU_ReadMem(16 bytes @ 0xE0041FE0)ROMTbl 0 [5]: FFF42000, CID: B105900D, PID: 000BB925 ETM >0x0D TIF> >0x21 TIF>  returns 0x2BA01477 (0084ms, 2047ms total)
T348C 021:003 JLINK_GetDLLVersion()  returns 50203 (0000ms, 2047ms total)
T348C 021:003 JLINK_CORE_GetFound()  returns 0xE0000FF (0000ms, 2047ms total)
T348C 021:003 JLINK_GetDebugInfo(0x100) -- Value=0xE00FF003  returns 0x00 (0000ms, 2047ms total)
T348C 021:009 JLINK_GetDebugInfo(0x100) -- Value=0xE00FF003  returns 0x00 (0000ms, 2047ms total)
T348C 021:009 JLINK_GetDebugInfo(0x101)  returns 0xFFFFFFFF (0000ms, 2047ms total)
T348C 021:009 JLINK_ReadMemEx(0xE0041FF0, 0x0010 Bytes, ..., AccessWidth = 33554436) -- CPU is running -- CPU_ReadMem(16 bytes @ 0xE0041FF0) - Data: 0D 00 00 00 90 00 00 00 05 00 00 00 B1 00 00 00  returns 0x10 (0001ms, 2048ms total)
T348C 021:010 JLINK_ReadMemEx(0xE0041FD0, 0x0020 Bytes, ..., AccessWidth = 33554436) -- CPU is running -- CPU_ReadMem(32 bytes @ 0xE0041FD0) - Data: 04 00 00 00 00 00 00 00 00 00 00 00 00 00 00 00 ...  returns 0x20 (0001ms, 2049ms total)
T348C 021:011 JLINK_GetDebugInfo(0x102)  returns 0xFFFFFFFF (0000ms, 2049ms total)
T348C 021:011 JLINK_GetDebugInfo(0x103)  returns 0xFFFFFFFF (0000ms, 2049ms total)
T348C 021:011 JLINK_ReadMemEx(0xE0040FF0, 0x0010 Bytes, ..., AccessWidth = 33554436) -- CPU is running -- CPU_ReadMem(16 bytes @ 0xE0040FF0) - Data: 0D 00 00 00 90 00 00 00 05 00 00 00 B1 00 00 00  returns 0x10 (0001ms, 2050ms total)
T348C 021:012 JLINK_GetDebugInfo(0x104)  returns 0xFFFFFFFF (0000ms, 2050ms total)
T348C 021:012 JLINK_GetDebugInfo(0x105)  returns 0xFFFFFFFF (0000ms, 2050ms total)
T348C 021:012 JLINK_GetDebugInfo(0x106)  returns 0xFFFFFFFF (0000ms, 2050ms total)
T348C 021:012 JLINK_GetDebugInfo(0x107)  returns 0xFFFFFFFF (0000ms, 2050ms total)
T348C 021:012 JLINK_GetDebugInfo(0x10C)  returns 0xFFFFFFFF (0000ms, 2050ms total)
T348C 021:012 JLINK_GetDebugInfo(0x01)  returns 0xFFFFFFFF (0000ms, 2050ms total)
T348C 021:012 JLINK_GetDeviceFamily()  returns 14 (0000ms, 2050ms total)
T348C 021:012 JLINK_ReadMemU32(0xE000ED00, 0x0001 Items, ...) -- CPU is running -- CPU_ReadMem(4 bytes @ 0xE000ED00) - Data: 41 C2 0F 41  returns 0x01 (0002ms, 2052ms total)
T348C 021:014 JLINK_GetDebugInfo(0x10F)  returns 0xFFFFFFFF (0000ms, 2052ms total)
T348C 021:014 JLINK_SetResetType(JLINKARM_RESET_TYPE_NORMAL)  returns JLINKARM_RESET_TYPE_NORMAL (0000ms, 2052ms total)
T348C 021:014 JLINK_Reset() -- CPU is running -- CPU_WriteMem(4 bytes @ 0xE000EDF0) -- CPU is running -- CPU_WriteMem(4 bytes @ 0xE000EDFC) >0x35 TIF> -- CPU is running -- CPU_WriteMem(4 bytes @ 0xE000ED0C) -- CPU is running -- CPU_ReadMem(4 bytes @ 0xE000EDF0) -- CPU is running -- CPU_ReadMem(4 bytes @ 0xE000EDF0) -- CPU is running -- CPU_WriteMem(4 bytes @ 0xE000EDF0) -- CPU is running -- CPU_WriteMem(4 bytes @ 0xE000EDFC) -- CPU is running -- CPU_ReadMem(4 bytes @ 0xE000EDF0)
 -- CPU_WriteMem(4 bytes @ 0xE0002000) -- CPU_ReadMem(4 bytes @ 0xE000EDFC) -- CPU_ReadMem(4 bytes @ 0xE0001000) (0023ms, 2075ms total)
T348C 021:037 JLINK_Halt()  returns 0x00 (0000ms, 2075ms total)
T348C 021:037 JLINK_ReadMemU32(0xE000EDF0, 0x0001 Items, ...) -- CPU_ReadMem(4 bytes @ 0xE000EDF0) - Data: 03 00 03 00  returns 0x01 (0001ms, 2076ms total)
T348C 021:038 JLINK_WriteU32(0xE000EDF0, 0xA05F0003) -- CPU_WriteMem(4 bytes @ 0xE000EDF0)  returns 0x00 (0000ms, 2076ms total)
T348C 021:038 JLINK_WriteU32(0xE000EDFC, 0x01000000) -- CPU_WriteMem(4 bytes @ 0xE000EDFC)  returns 0x00 (0001ms, 2077ms total)
T348C 021:054 JLINK_GetHWStatus(...)  returns 0x00 (0002ms, 2079ms total)
T348C 021:064 JLINK_GetNumBPUnits(Type = 0xFFFFFF00)  returns 0x06 (0000ms, 2079ms total)
T348C 021:064 JLINK_GetNumBPUnits(Type = 0xF0)  returns 0x2000 (0000ms, 2079ms total)
T348C 021:064 JLINK_GetNumWPUnits()  returns 0x04 (0000ms, 2079ms total)
T348C 021:078 JLINK_GetSpeed()  returns 0xFA0 (0000ms, 2079ms total)
T348C 021:084 JLINK_ReadMemU32(0xE000E004, 0x0001 Items, ...) -- CPU_ReadMem(4 bytes @ 0xE000E004) - Data: 02 00 00 00  returns 0x01 (0001ms, 2080ms total)
T348C 021:085 JLINK_ReadMemU32(0xE000E004, 0x0001 Items, ...) -- CPU_ReadMem(4 bytes @ 0xE000E004) - Data: 02 00 00 00  returns 0x01 (0001ms, 2081ms total)
T348C 021:086 JLINK_WriteMemEx(0xE0001000, 0x001C Bytes, ..., AccessWidth = 33554436) - Data: 01 00 00 00 00 00 00 00 00 00 00 00 00 00 00 00 ... -- CPU_WriteMem(28 bytes @ 0xE0001000)  returns 0x1C (0002ms, 2083ms total)
T348C 021:088 JLINK_Halt()  returns 0x00 (0000ms, 2083ms total)
T348C 021:088 JLINK_IsHalted()  returns TRUE (0000ms, 2083ms total)
T348C 021:091 JLINK_WriteMem(0x20000000, 0x0180 Bytes, ...) - Data: 00 BE 0A E0 0D 78 2D 06 68 40 08 24 40 00 00 D3 ... -- CPU_WriteMem(384 bytes @ 0x20000000)  returns 0x180 (0004ms, 2087ms total)
T348C 021:095 JLINK_WriteReg(R0, 0x08000000)  returns 0x00 (0000ms, 2087ms total)
T348C 021:095 JLINK_WriteReg(R1, 0x0A037A00)  returns 0x00 (0000ms, 2087ms total)
T348C 021:095 JLINK_WriteReg(R2, 0x00000001)  returns 0x00 (0000ms, 2087ms total)
T348C 021:095 JLINK_WriteReg(R3, 0x00000000)  returns 0x00 (0000ms, 2087ms total)
T348C 021:095 JLINK_WriteReg(R4, 0x00000000)  returns 0x00 (0000ms, 2087ms total)
T348C 021:095 JLINK_WriteReg(R5, 0x00000000)  returns 0x00 (0000ms, 2087ms total)
T348C 021:095 JLINK_WriteReg(R6, 0x00000000)  returns 0x00 (0000ms, 2087ms total)
T348C 021:095 JLINK_WriteReg(R7, 0x00000000)  returns 0x00 (0000ms, 2087ms total)
T348C 021:095 JLINK_WriteReg(R8, 0x00000000)  returns 0x00 (0000ms, 2087ms total)
T348C 021:095 JLINK_WriteReg(R9, 0x2000017C)  returns 0x00 (0000ms, 2087ms total)
T348C 021:095 JLINK_WriteReg(R10, 0x00000000)  returns 0x00 (0000ms, 2087ms total)
T348C 021:095 JLINK_WriteReg(R11, 0x00000000)  returns 0x00 (0000ms, 2087ms total)
T348C 021:095 JLINK_WriteReg(R12, 0x00000000)  returns 0x00 (0000ms, 2087ms total)
T348C 021:095 JLINK_WriteReg(R13 (SP), 0x20000800)  returns 0x00 (0000ms, 2087ms total)
T348C 021:095 JLINK_WriteReg(R14, 0x20000001)  returns 0x00 (0000ms, 2087ms total)
T348C 021:095 JLINK_WriteReg(R15 (PC), 0x20000054)  returns 0x00 (0000ms, 2087ms total)
T348C 021:095 JLINK_WriteReg(XPSR, 0x01000000)  returns 0x00 (0000ms, 2087ms total)
T348C 021:095 JLINK_WriteReg(MSP, 0x20000800)  returns 0x00 (0000ms, 2087ms total)
T348C 021:095 JLINK_WriteReg(PSP, 0x20000800)  returns 0x00 (0000ms, 2087ms total)
T348C 021:095 JLINK_WriteReg(CFBP, 0x00000000)  returns 0x00 (0000ms, 2087ms total)
T348C 021:095 JLINK_SetBPEx(Addr = 0x20000000, Type = 0xFFFFFFF2) -- CPU_ReadMem(4 bytes @ 0x20000000) -- CPU_WriteMem(4 bytes @ 0x20000000) -- CPU_ReadMem(4 bytes @ 0x20000000) -- CPU_WriteMem(4 bytes @ 0x20000000) -- CPU_ReadMem(2 bytes @ 0x20000000)  returns 0x00000001 (0003ms, 2090ms total)
T348C 021:098 JLINK_Go() -- CPU_WriteMem(2 bytes @ 0x20000000) -- CPU_ReadMem(4 bytes @ 0xE0001000) -- CPU_WriteMem(4 bytes @ 0xE0002008) -- CPU_WriteMem(4 bytes @ 0xE000200C) -- CPU_WriteMem(4 bytes @ 0xE0002010) -- CPU_WriteMem(4 bytes @ 0xE0002014) -- CPU_WriteMem(4 bytes @ 0xE0002018) -- CPU_WriteMem(4 bytes @ 0xE000201C) -- CPU_WriteMem(4 bytes @ 0xE0001004) (0006ms, 2096ms total)
T348C 021:104 JLINK_IsHalted() -- CPU_ReadMem(2 bytes @ 0x20000000)  returns TRUE (0004ms, 2100ms total)
T348C 021:108 JLINK_ReadReg(R15 (PC))  returns 0x20000000 (0000ms, 2096ms total)
T348C 021:108 JLINK_ClrBPEx(BPHandle = 0x00000001)  returns 0x00 (0000ms, 2096ms total)
T348C 021:108 JLINK_ReadReg(R0)  returns 0x00000000 (0000ms, 2096ms total)
T348C 021:108 JLINK_WriteReg(R0, 0x08000000)  returns 0x00 (0000ms, 2096ms total)
T348C 021:108 JLINK_WriteReg(R1, 0x00004000)  returns 0x00 (0000ms, 2096ms total)
T348C 021:108 JLINK_WriteReg(R2, 0x000000FF)  returns 0x00 (0000ms, 2096ms total)
T348C 021:108 JLINK_WriteReg(R3, 0x00000000)  returns 0x00 (0000ms, 2096ms total)
T348C 021:108 JLINK_WriteReg(R4, 0x00000000)  returns 0x00 (0000ms, 2096ms total)
T348C 021:108 JLINK_WriteReg(R5, 0x00000000)  returns 0x00 (0000ms, 2096ms total)
T348C 021:108 JLINK_WriteReg(R6, 0x00000000)  returns 0x00 (0000ms, 2096ms total)
T348C 021:108 JLINK_WriteReg(R7, 0x00000000)  returns 0x00 (0000ms, 2096ms total)
T348C 021:108 JLINK_WriteReg(R8, 0x00000000)  returns 0x00 (0000ms, 2096ms total)
T348C 021:108 JLINK_WriteReg(R9, 0x2000017C)  returns 0x00 (0000ms, 2096ms total)
T348C 021:108 JLINK_WriteReg(R10, 0x00000000)  returns 0x00 (0000ms, 2096ms total)
T348C 021:108 JLINK_WriteReg(R11, 0x00000000)  returns 0x00 (0000ms, 2096ms total)
T348C 021:108 JLINK_WriteReg(R12, 0x00000000)  returns 0x00 (0000ms, 2096ms total)
T348C 021:108 JLINK_WriteReg(R13 (SP), 0x20000800)  returns 0x00 (0000ms, 2096ms total)
T348C 021:108 JLINK_WriteReg(R14, 0x20000001)  returns 0x00 (0000ms, 2096ms total)
T348C 021:108 JLINK_WriteReg(R15 (PC), 0x20000020)  returns 0x00 (0000ms, 2096ms total)
T348C 021:109 JLINK_WriteReg(XPSR, 0x01000000)  returns 0x00 (0000ms, 2096ms total)
T348C 021:109 JLINK_WriteReg(MSP, 0x20000800)  returns 0x00 (0000ms, 2096ms total)
T348C 021:109 JLINK_WriteReg(PSP, 0x20000800)  returns 0x00 (0000ms, 2096ms total)
T348C 021:109 JLINK_WriteReg(CFBP, 0x00000000)  returns 0x00 (0000ms, 2096ms total)
T348C 021:109 JLINK_SetBPEx(Addr = 0x20000000, Type = 0xFFFFFFF2)  returns 0x00000002 (0000ms, 2096ms total)
T348C 021:109 JLINK_Go() -- CPU_ReadMem(4 bytes @ 0xE0001000) (0002ms, 2098ms total)
T348C 021:111 JLINK_IsHalted()  returns FALSE (0001ms, 2099ms total)
T348C 021:171 JLINK_IsHalted() -- CPU_ReadMem(2 bytes @ 0x20000000)  returns TRUE (0004ms, 2102ms total)
T348C 021:175 JLINK_ReadReg(R15 (PC))  returns 0x20000000 (0000ms, 2098ms total)
T348C 021:175 JLINK_ClrBPEx(BPHandle = 0x00000002)  returns 0x00 (0000ms, 2098ms total)
T348C 021:175 JLINK_ReadReg(R0)  returns 0x00000000 (0000ms, 2098ms total)
T348C 021:175 JLINK_WriteReg(R0, 0x08004000)  returns 0x00 (0000ms, 2098ms total)
T348C 021:175 JLINK_WriteReg(R1, 0x00004000)  returns 0x00 (0000ms, 2098ms total)
T348C 021:175 JLINK_WriteReg(R2, 0x000000FF)  returns 0x00 (0000ms, 2098ms total)
T348C 021:175 JLINK_WriteReg(R3, 0x00000000)  returns 0x00 (0000ms, 2098ms total)
T348C 021:175 JLINK_WriteReg(R4, 0x00000000)  returns 0x00 (0000ms, 2098ms total)
T348C 021:175 JLINK_WriteReg(R5, 0x00000000)  returns 0x00 (0000ms, 2098ms total)
T348C 021:175 JLINK_WriteReg(R6, 0x00000000)  returns 0x00 (0000ms, 2098ms total)
T348C 021:175 JLINK_WriteReg(R7, 0x00000000)  returns 0x00 (0000ms, 2098ms total)
T348C 021:175 JLINK_WriteReg(R8, 0x00000000)  returns 0x00 (0000ms, 2098ms total)
T348C 021:175 JLINK_WriteReg(R9, 0x2000017C)  returns 0x00 (0000ms, 2098ms total)
T348C 021:176 JLINK_WriteReg(R10, 0x00000000)  returns 0x00 (0000ms, 2098ms total)
T348C 021:176 JLINK_WriteReg(R11, 0x00000000)  returns 0x00 (0000ms, 2098ms total)
T348C 021:176 JLINK_WriteReg(R12, 0x00000000)  returns 0x00 (0000ms, 2098ms total)
T348C 021:176 JLINK_WriteReg(R13 (SP), 0x20000800)  returns 0x00 (0000ms, 2098ms total)
T348C 021:176 JLINK_WriteReg(R14, 0x20000001)  returns 0x00 (0000ms, 2098ms total)
T348C 021:176 JLINK_WriteReg(R15 (PC), 0x20000020)  returns 0x00 (0000ms, 2098ms total)
T348C 021:176 JLINK_WriteReg(XPSR, 0x01000000)  returns 0x00 (0000ms, 2098ms total)
T348C 021:176 JLINK_WriteReg(MSP, 0x20000800)  returns 0x00 (0000ms, 2098ms total)
T348C 021:176 JLINK_WriteReg(PSP, 0x20000800)  returns 0x00 (0000ms, 2098ms total)
T348C 021:176 JLINK_WriteReg(CFBP, 0x00000000)  returns 0x00 (0000ms, 2098ms total)
T348C 021:176 JLINK_SetBPEx(Addr = 0x20000000, Type = 0xFFFFFFF2)  returns 0x00000003 (0000ms, 2098ms total)
T348C 021:176 JLINK_Go() -- CPU_ReadMem(4 bytes @ 0xE0001000) (0003ms, 2101ms total)
T348C 021:179 JLINK_IsHalted()  returns FALSE (0001ms, 2102ms total)
T348C 021:183 JLINK_IsHalted()  returns FALSE (0000ms, 2101ms total)
T348C 021:185 JLINK_IsHalted()  returns FALSE (0000ms, 2101ms total)
T348C 021:187 JLINK_IsHalted()  returns FALSE (0001ms, 2102ms total)
T348C 021:190 JLINK_IsHalted()  returns FALSE (0001ms, 2102ms total)
T348C 021:193 JLINK_IsHalted()  returns FALSE (0000ms, 2101ms total)
T348C 021:195 JLINK_IsHalted()  returns FALSE (0000ms, 2101ms total)
T348C 021:197 JLINK_IsHalted()  returns FALSE (0000ms, 2101ms total)
T348C 021:199 JLINK_IsHalted()  returns FALSE (0000ms, 2101ms total)
T348C 021:201 JLINK_IsHalted() -- CPU_ReadMem(2 bytes @ 0x20000000)  returns TRUE (0004ms, 2105ms total)
T348C 021:205 JLINK_ReadReg(R15 (PC))  returns 0x20000000 (0000ms, 2101ms total)
T348C 021:205 JLINK_ClrBPEx(BPHandle = 0x00000003)  returns 0x00 (0000ms, 2101ms total)
T348C 021:205 JLINK_ReadReg(R0)  returns 0x00000000 (0000ms, 2101ms total)
T348C 021:205 JLINK_WriteReg(R0, 0x08008000)  returns 0x00 (0000ms, 2101ms total)
T348C 021:205 JLINK_WriteReg(R1, 0x00004000)  returns 0x00 (0000ms, 2101ms total)
T348C 021:205 JLINK_WriteReg(R2, 0x000000FF)  returns 0x00 (0000ms, 2101ms total)
T348C 021:205 JLINK_WriteReg(R3, 0x00000000)  returns 0x00 (0000ms, 2101ms total)
T348C 021:205 JLINK_WriteReg(R4, 0x00000000)  returns 0x00 (0000ms, 2101ms total)
T348C 021:205 JLINK_WriteReg(R5, 0x00000000)  returns 0x00 (0000ms, 2101ms total)
T348C 021:206 JLINK_WriteReg(R6, 0x00000000)  returns 0x00 (0000ms, 2102ms total)
T348C 021:206 JLINK_WriteReg(R7, 0x00000000)  returns 0x00 (0000ms, 2102ms total)
T348C 021:206 JLINK_WriteReg(R8, 0x00000000)  returns 0x00 (0000ms, 2102ms total)
T348C 021:206 JLINK_WriteReg(R9, 0x2000017C)  returns 0x00 (0000ms, 2102ms total)
T348C 021:206 JLINK_WriteReg(R10, 0x00000000)  returns 0x00 (0000ms, 2102ms total)
T348C 021:206 JLINK_WriteReg(R11, 0x00000000)  returns 0x00 (0000ms, 2102ms total)
T348C 021:206 JLINK_WriteReg(R12, 0x00000000)  returns 0x00 (0000ms, 2102ms total)
T348C 021:206 JLINK_WriteReg(R13 (SP), 0x20000800)  returns 0x00 (0000ms, 2102ms total)
T348C 021:206 JLINK_WriteReg(R14, 0x20000001)  returns 0x00 (0000ms, 2102ms total)
T348C 021:206 JLINK_WriteReg(R15 (PC), 0x20000020)  returns 0x00 (0000ms, 2102ms total)
T348C 021:206 JLINK_WriteReg(XPSR, 0x01000000)  returns 0x00 (0000ms, 2102ms total)
T348C 021:206 JLINK_WriteReg(MSP, 0x20000800)  returns 0x00 (0000ms, 2102ms total)
T348C 021:206 JLINK_WriteReg(PSP, 0x20000800)  returns 0x00 (0000ms, 2102ms total)
T348C 021:206 JLINK_WriteReg(CFBP, 0x00000000)  returns 0x00 (0000ms, 2102ms total)
T348C 021:206 JLINK_SetBPEx(Addr = 0x20000000, Type = 0xFFFFFFF2)  returns 0x00000004 (0000ms, 2102ms total)
T348C 021:206 JLINK_Go() -- CPU_ReadMem(4 bytes @ 0xE0001000) (0002ms, 2104ms total)
T348C 021:208 JLINK_IsHalted()  returns FALSE (0001ms, 2105ms total)
T348C 021:211 JLINK_IsHalted()  returns FALSE (0000ms, 2104ms total)
T348C 021:214 JLINK_IsHalted()  returns FALSE (0001ms, 2105ms total)
T348C 021:217 JLINK_IsHalted()  returns FALSE (0001ms, 2105ms total)
T348C 021:220 JLINK_IsHalted()  returns FALSE (0000ms, 2104ms total)
T348C 021:222 JLINK_IsHalted()  returns FALSE (0001ms, 2105ms total)
T348C 021:225 JLINK_IsHalted()  returns FALSE (0001ms, 2105ms total)
T348C 021:229 JLINK_IsHalted()  returns FALSE (0001ms, 2105ms total)
T348C 021:232 JLINK_IsHalted() -- CPU_ReadMem(2 bytes @ 0x20000000)  returns TRUE (0005ms, 2109ms total)
T348C 021:237 JLINK_ReadReg(R15 (PC))  returns 0x20000000 (0000ms, 2104ms total)
T348C 021:237 JLINK_ClrBPEx(BPHandle = 0x00000004)  returns 0x00 (0000ms, 2104ms total)
T348C 021:237 JLINK_ReadReg(R0)  returns 0x00000000 (0000ms, 2104ms total)
T348C 021:237 JLINK_WriteReg(R0, 0x0800C000)  returns 0x00 (0001ms, 2105ms total)
T348C 021:238 JLINK_WriteReg(R1, 0x00004000)  returns 0x00 (0000ms, 2105ms total)
T348C 021:238 JLINK_WriteReg(R2, 0x000000FF)  returns 0x00 (0000ms, 2105ms total)
T348C 021:238 JLINK_WriteReg(R3, 0x00000000)  returns 0x00 (0000ms, 2105ms total)
T348C 021:238 JLINK_WriteReg(R4, 0x00000000)  returns 0x00 (0000ms, 2105ms total)
T348C 021:238 JLINK_WriteReg(R5, 0x00000000)  returns 0x00 (0000ms, 2105ms total)
T348C 021:238 JLINK_WriteReg(R6, 0x00000000)  returns 0x00 (0000ms, 2105ms total)
T348C 021:238 JLINK_WriteReg(R7, 0x00000000)  returns 0x00 (0000ms, 2105ms total)
T348C 021:238 JLINK_WriteReg(R8, 0x00000000)  returns 0x00 (0000ms, 2105ms total)
T348C 021:238 JLINK_WriteReg(R9, 0x2000017C)  returns 0x00 (0000ms, 2105ms total)
T348C 021:238 JLINK_WriteReg(R10, 0x00000000)  returns 0x00 (0000ms, 2105ms total)
T348C 021:238 JLINK_WriteReg(R11, 0x00000000)  returns 0x00 (0000ms, 2105ms total)
T348C 021:238 JLINK_WriteReg(R12, 0x00000000)  returns 0x00 (0000ms, 2105ms total)
T348C 021:238 JLINK_WriteReg(R13 (SP), 0x20000800)  returns 0x00 (0000ms, 2105ms total)
T348C 021:238 JLINK_WriteReg(R14, 0x20000001)  returns 0x00 (0000ms, 2105ms total)
T348C 021:238 JLINK_WriteReg(R15 (PC), 0x20000020)  returns 0x00 (0000ms, 2105ms total)
T348C 021:238 JLINK_WriteReg(XPSR, 0x01000000)  returns 0x00 (0000ms, 2105ms total)
T348C 021:238 JLINK_WriteReg(MSP, 0x20000800)  returns 0x00 (0000ms, 2105ms total)
T348C 021:238 JLINK_WriteReg(PSP, 0x20000800)  returns 0x00 (0000ms, 2105ms total)
T348C 021:238 JLINK_WriteReg(CFBP, 0x00000000)  returns 0x00 (0000ms, 2105ms total)
T348C 021:238 JLINK_SetBPEx(Addr = 0x20000000, Type = 0xFFFFFFF2)  returns 0x00000005 (0000ms, 2105ms total)
T348C 021:238 JLINK_Go() -- CPU_ReadMem(4 bytes @ 0xE0001000) (0004ms, 2109ms total)
T348C 021:242 JLINK_IsHalted()  returns FALSE (0001ms, 2110ms total)
T348C 021:245 JLINK_IsHalted()  returns FALSE (0001ms, 2110ms total)
T348C 021:248 JLINK_IsHalted()  returns FALSE (0000ms, 2109ms total)
T348C 021:250 JLINK_IsHalted()  returns FALSE (0000ms, 2109ms total)
T348C 021:252 JLINK_IsHalted()  returns FALSE (0001ms, 2110ms total)
T348C 021:255 JLINK_IsHalted()  returns FALSE (0001ms, 2110ms total)
T348C 021:258 JLINK_IsHalted()  returns FALSE (0000ms, 2109ms total)
T348C 021:265 JLINK_IsHalted() -- CPU_ReadMem(2 bytes @ 0x20000000)  returns TRUE (0003ms, 2112ms total)
T348C 021:268 JLINK_ReadReg(R15 (PC))  returns 0x20000000 (0001ms, 2110ms total)
T348C 021:269 JLINK_ClrBPEx(BPHandle = 0x00000005)  returns 0x00 (0000ms, 2110ms total)
T348C 021:269 JLINK_ReadReg(R0)  returns 0x00000000 (0000ms, 2110ms total)
T348C 021:269 JLINK_WriteReg(R0, 0x08010000)  returns 0x00 (0000ms, 2110ms total)
T348C 021:269 JLINK_WriteReg(R1, 0x00010000)  returns 0x00 (0000ms, 2110ms total)
T348C 021:269 JLINK_WriteReg(R2, 0x000000FF)  returns 0x00 (0001ms, 2111ms total)
T348C 021:270 JLINK_WriteReg(R3, 0x00000000)  returns 0x00 (0000ms, 2111ms total)
T348C 021:270 JLINK_WriteReg(R4, 0x00000000)  returns 0x00 (0000ms, 2111ms total)
T348C 021:270 JLINK_WriteReg(R5, 0x00000000)  returns 0x00 (0000ms, 2111ms total)
T348C 021:270 JLINK_WriteReg(R6, 0x00000000)  returns 0x00 (0000ms, 2111ms total)
T348C 021:270 JLINK_WriteReg(R7, 0x00000000)  returns 0x00 (0000ms, 2111ms total)
T348C 021:270 JLINK_WriteReg(R8, 0x00000000)  returns 0x00 (0000ms, 2111ms total)
T348C 021:270 JLINK_WriteReg(R9, 0x2000017C)  returns 0x00 (0000ms, 2111ms total)
T348C 021:270 JLINK_WriteReg(R10, 0x00000000)  returns 0x00 (0000ms, 2111ms total)
T348C 021:270 JLINK_WriteReg(R11, 0x00000000)  returns 0x00 (0000ms, 2111ms total)
T348C 021:270 JLINK_WriteReg(R12, 0x00000000)  returns 0x00 (0000ms, 2111ms total)
T348C 021:270 JLINK_WriteReg(R13 (SP), 0x20000800)  returns 0x00 (0000ms, 2111ms total)
T348C 021:270 JLINK_WriteReg(R14, 0x20000001)  returns 0x00 (0000ms, 2111ms total)
T348C 021:270 JLINK_WriteReg(R15 (PC), 0x20000020)  returns 0x00 (0000ms, 2111ms total)
T348C 021:270 JLINK_WriteReg(XPSR, 0x01000000)  returns 0x00 (0000ms, 2111ms total)
T348C 021:270 JLINK_WriteReg(MSP, 0x20000800)  returns 0x00 (0000ms, 2111ms total)
T348C 021:270 JLINK_WriteReg(PSP, 0x20000800)  returns 0x00 (0000ms, 2111ms total)
T348C 021:270 JLINK_WriteReg(CFBP, 0x00000000)  returns 0x00 (0000ms, 2111ms total)
T348C 021:270 JLINK_SetBPEx(Addr = 0x20000000, Type = 0xFFFFFFF2)  returns 0x00000006 (0000ms, 2111ms total)
T348C 021:270 JLINK_Go() -- CPU_ReadMem(4 bytes @ 0xE0001000) (0003ms, 2114ms total)
T348C 021:273 JLINK_IsHalted()  returns FALSE (0000ms, 2114ms total)
T348C 021:276 JLINK_IsHalted()  returns FALSE (0000ms, 2114ms total)
T348C 021:278 JLINK_IsHalted()  returns FALSE (0000ms, 2114ms total)
T348C 021:280 JLINK_IsHalted()  returns FALSE (0000ms, 2114ms total)
T348C 021:282 JLINK_IsHalted()  returns FALSE (0000ms, 2114ms total)
T348C 021:284 JLINK_IsHalted()  returns FALSE (0000ms, 2114ms total)
T348C 021:286 JLINK_IsHalted()  returns FALSE (0000ms, 2114ms total)
T348C 021:288 JLINK_IsHalted()  returns FALSE (0000ms, 2114ms total)
T348C 021:290 JLINK_IsHalted()  returns FALSE (0000ms, 2114ms total)
T348C 021:292 JLINK_IsHalted()  returns FALSE (0000ms, 2114ms total)
T348C 021:294 JLINK_IsHalted()  returns FALSE (0001ms, 2115ms total)
T348C 021:296 JLINK_IsHalted()  returns FALSE (0001ms, 2115ms total)
T348C 021:298 JLINK_IsHalted()  returns FALSE (0001ms, 2115ms total)
T348C 021:302 JLINK_IsHalted()  returns FALSE (0000ms, 2114ms total)
T348C 021:304 JLINK_IsHalted()  returns FALSE (0000ms, 2114ms total)
T348C 021:306 JLINK_IsHalted()  returns FALSE (0001ms, 2115ms total)
T348C 021:309 JLINK_IsHalted()  returns FALSE (0001ms, 2115ms total)
T348C 021:313 JLINK_IsHalted()  returns FALSE (0001ms, 2115ms total)
T348C 021:316 JLINK_IsHalted()  returns FALSE (0000ms, 2114ms total)
T348C 021:318 JLINK_IsHalted()  returns FALSE (0001ms, 2115ms total)
T348C 021:323 JLINK_IsHalted()  returns FALSE (0001ms, 2115ms total)
T348C 021:326 JLINK_IsHalted()  returns FALSE (0001ms, 2115ms total)
T348C 021:329 JLINK_IsHalted()  returns FALSE (0001ms, 2115ms total)
T348C 021:332 JLINK_IsHalted()  returns FALSE (0001ms, 2115ms total)
T348C 021:335 JLINK_IsHalted()  returns FALSE (0001ms, 2115ms total)
T348C 021:339 JLINK_IsHalted()  returns FALSE (0001ms, 2115ms total)
T348C 021:342 JLINK_IsHalted()  returns FALSE (0001ms, 2115ms total)
T348C 021:346 JLINK_IsHalted()  returns FALSE (0001ms, 2115ms total)
T348C 021:349 JLINK_IsHalted()  returns FALSE (0001ms, 2115ms total)
T348C 021:352 JLINK_IsHalted()  returns FALSE (0001ms, 2115ms total)
T348C 021:355 JLINK_IsHalted()  returns FALSE (0001ms, 2115ms total)
T348C 021:358 JLINK_IsHalted()  returns FALSE (0001ms, 2115ms total)
T348C 021:361 JLINK_IsHalted() -- CPU_ReadMem(2 bytes @ 0x20000000)  returns TRUE (0006ms, 2120ms total)
T348C 021:367 JLINK_ReadReg(R15 (PC))  returns 0x20000000 (0000ms, 2114ms total)
T348C 021:367 JLINK_ClrBPEx(BPHandle = 0x00000006)  returns 0x00 (0000ms, 2114ms total)
T348C 021:367 JLINK_ReadReg(R0)  returns 0x00000000 (0000ms, 2114ms total)
T348C 021:368 JLINK_WriteReg(R0, 0x00000001)  returns 0x00 (0000ms, 2114ms total)
T348C 021:368 JLINK_WriteReg(R1, 0x00010000)  returns 0x00 (0000ms, 2114ms total)
T348C 021:368 JLINK_WriteReg(R2, 0x000000FF)  returns 0x00 (0000ms, 2114ms total)
T348C 021:368 JLINK_WriteReg(R3, 0x00000000)  returns 0x00 (0000ms, 2114ms total)
T348C 021:368 JLINK_WriteReg(R4, 0x00000000)  returns 0x00 (0000ms, 2114ms total)
T348C 021:368 JLINK_WriteReg(R5, 0x00000000)  returns 0x00 (0000ms, 2114ms total)
T348C 021:368 JLINK_WriteReg(R6, 0x00000000)  returns 0x00 (0000ms, 2114ms total)
T348C 021:368 JLINK_WriteReg(R7, 0x00000000)  returns 0x00 (0000ms, 2114ms total)
T348C 021:368 JLINK_WriteReg(R8, 0x00000000)  returns 0x00 (0000ms, 2114ms total)
T348C 021:368 JLINK_WriteReg(R9, 0x2000017C)  returns 0x00 (0000ms, 2114ms total)
T348C 021:369 JLINK_WriteReg(R10, 0x00000000)  returns 0x00 (0000ms, 2114ms total)
T348C 021:369 JLINK_WriteReg(R11, 0x00000000)  returns 0x00 (0000ms, 2114ms total)
T348C 021:369 JLINK_WriteReg(R12, 0x00000000)  returns 0x00 (0000ms, 2114ms total)
T348C 021:369 JLINK_WriteReg(R13 (SP), 0x20000800)  returns 0x00 (0000ms, 2114ms total)
T348C 021:369 JLINK_WriteReg(R14, 0x20000001)  returns 0x00 (0000ms, 2114ms total)
T348C 021:369 JLINK_WriteReg(R15 (PC), 0x20000082)  returns 0x00 (0000ms, 2114ms total)
T348C 021:369 JLINK_WriteReg(XPSR, 0x01000000)  returns 0x00 (0000ms, 2114ms total)
T348C 021:369 JLINK_WriteReg(MSP, 0x20000800)  returns 0x00 (0000ms, 2114ms total)
T348C 021:369 JLINK_WriteReg(PSP, 0x20000800)  returns 0x00 (0000ms, 2114ms total)
T348C 021:369 JLINK_WriteReg(CFBP, 0x00000000)  returns 0x00 (0000ms, 2114ms total)
T348C 021:369 JLINK_SetBPEx(Addr = 0x20000000, Type = 0xFFFFFFF2)  returns 0x00000007 (0000ms, 2114ms total)
T348C 021:369 JLINK_Go() -- CPU_ReadMem(4 bytes @ 0xE0001000) (0003ms, 2117ms total)
T348C 021:372 JLINK_IsHalted() -- CPU_ReadMem(2 bytes @ 0x20000000)  returns TRUE (0005ms, 2122ms total)
T348C 021:377 JLINK_ReadReg(R15 (PC))  returns 0x20000000 (0000ms, 2117ms total)
T348C 021:377 JLINK_ClrBPEx(BPHandle = 0x00000007)  returns 0x00 (0000ms, 2117ms total)
T348C 021:377 JLINK_ReadReg(R0)  returns 0x00000000 (0000ms, 2117ms total)
T348C 021:442 JLINK_WriteMem(0x20000000, 0x0180 Bytes, ...) - Data: 00 BE 0A E0 0D 78 2D 06 68 40 08 24 40 00 00 D3 ... -- CPU_WriteMem(384 bytes @ 0x20000000)  returns 0x180 (0003ms, 2120ms total)
T348C 021:445 JLINK_WriteReg(R0, 0x08000000)  returns 0x00 (0000ms, 2120ms total)
T348C 021:445 JLINK_WriteReg(R1, 0x0A037A00)  returns 0x00 (0000ms, 2120ms total)
T348C 021:445 JLINK_WriteReg(R2, 0x00000002)  returns 0x00 (0000ms, 2120ms total)
T348C 021:445 JLINK_WriteReg(R3, 0x00000000)  returns 0x00 (0000ms, 2120ms total)
T348C 021:445 JLINK_WriteReg(R4, 0x00000000)  returns 0x00 (0000ms, 2120ms total)
T348C 021:445 JLINK_WriteReg(R5, 0x00000000)  returns 0x00 (0000ms, 2120ms total)
T348C 021:445 JLINK_WriteReg(R6, 0x00000000)  returns 0x00 (0000ms, 2120ms total)
T348C 021:445 JLINK_WriteReg(R7, 0x00000000)  returns 0x00 (0000ms, 2120ms total)
T348C 021:445 JLINK_WriteReg(R8, 0x00000000)  returns 0x00 (0000ms, 2120ms total)
T348C 021:445 JLINK_WriteReg(R9, 0x2000017C)  returns 0x00 (0000ms, 2120ms total)
T348C 021:445 JLINK_WriteReg(R10, 0x00000000)  returns 0x00 (0000ms, 2120ms total)
T348C 021:445 JLINK_WriteReg(R11, 0x00000000)  returns 0x00 (0000ms, 2120ms total)
T348C 021:445 JLINK_WriteReg(R12, 0x00000000)  returns 0x00 (0000ms, 2120ms total)
T348C 021:445 JLINK_WriteReg(R13 (SP), 0x20000800)  returns 0x00 (0000ms, 2120ms total)
T348C 021:445 JLINK_WriteReg(R14, 0x20000001)  returns 0x00 (0000ms, 2120ms total)
T348C 021:445 JLINK_WriteReg(R15 (PC), 0x20000054)  returns 0x00 (0000ms, 2120ms total)
T348C 021:445 JLINK_WriteReg(XPSR, 0x01000000)  returns 0x00 (0001ms, 2121ms total)
T348C 021:446 JLINK_WriteReg(MSP, 0x20000800)  returns 0x00 (0000ms, 2121ms total)
T348C 021:446 JLINK_WriteReg(PSP, 0x20000800)  returns 0x00 (0000ms, 2121ms total)
T348C 021:446 JLINK_WriteReg(CFBP, 0x00000000)  returns 0x00 (0000ms, 2121ms total)
T348C 021:446 JLINK_SetBPEx(Addr = 0x20000000, Type = 0xFFFFFFF2) -- CPU_ReadMem(4 bytes @ 0x20000000) -- CPU_WriteMem(4 bytes @ 0x20000000) -- CPU_ReadMem(4 bytes @ 0x20000000) -- CPU_WriteMem(4 bytes @ 0x20000000) -- CPU_ReadMem(2 bytes @ 0x20000000)  returns 0x00000008 (0003ms, 2124ms total)
T348C 021:449 JLINK_Go() -- CPU_WriteMem(2 bytes @ 0x20000000) -- CPU_ReadMem(4 bytes @ 0xE0001000) (0005ms, 2129ms total)
T348C 021:454 JLINK_IsHalted() -- CPU_ReadMem(2 bytes @ 0x20000000)  returns TRUE (0005ms, 2134ms total)
T348C 021:459 JLINK_ReadReg(R15 (PC))  returns 0x20000000 (0000ms, 2129ms total)
T348C 021:459 JLINK_ClrBPEx(BPHandle = 0x00000008)  returns 0x00 (0000ms, 2129ms total)
T348C 021:459 JLINK_ReadReg(R0)  returns 0x00000000 (0000ms, 2129ms total)
T348C 021:460 JLINK_WriteMem(0x20000180, 0x0280 Bytes, ...) - Data: E8 3A 00 20 99 83 01 08 9D 01 00 08 A3 83 01 08 ... -- CPU_WriteMem(640 bytes @ 0x20000180)  returns 0x280 (0005ms, 2134ms total)
T348C 021:465 JLINK_WriteMem(0x20000400, 0x0180 Bytes, ...) - Data: 40 49 09 88 B1 F5 7A 7F 02 D1 00 21 3D 4A 11 80 ... -- CPU_WriteMem(384 bytes @ 0x20000400)  returns 0x180 (0002ms, 2136ms total)
T348C 021:467 JLINK_WriteReg(R0, 0x08000000)  returns 0x00 (0000ms, 2136ms total)
T348C 021:467 JLINK_WriteReg(R1, 0x00000400)  returns 0x00 (0000ms, 2136ms total)
T348C 021:467 JLINK_WriteReg(R2, 0x20000180)  returns 0x00 (0000ms, 2136ms total)
T348C 021:467 JLINK_WriteReg(R3, 0x00000000)  returns 0x00 (0000ms, 2136ms total)
T348C 021:467 JLINK_WriteReg(R4, 0x00000000)  returns 0x00 (0000ms, 2136ms total)
T348C 021:467 JLINK_WriteReg(R5, 0x00000000)  returns 0x00 (0000ms, 2136ms total)
T348C 021:467 JLINK_WriteReg(R6, 0x00000000)  returns 0x00 (0000ms, 2136ms total)
T348C 021:467 JLINK_WriteReg(R7, 0x00000000)  returns 0x00 (0000ms, 2136ms total)
T348C 021:467 JLINK_WriteReg(R8, 0x00000000)  returns 0x00 (0000ms, 2136ms total)
T348C 021:467 JLINK_WriteReg(R9, 0x2000017C)  returns 0x00 (0000ms, 2136ms total)
T348C 021:467 JLINK_WriteReg(R10, 0x00000000)  returns 0x00 (0001ms, 2137ms total)
T348C 021:468 JLINK_WriteReg(R11, 0x00000000)  returns 0x00 (0000ms, 2137ms total)
T348C 021:468 JLINK_WriteReg(R12, 0x00000000)  returns 0x00 (0000ms, 2137ms total)
T348C 021:468 JLINK_WriteReg(R13 (SP), 0x20000800)  returns 0x00 (0000ms, 2137ms total)
T348C 021:468 JLINK_WriteReg(R14, 0x20000001)  returns 0x00 (0000ms, 2137ms total)
T348C 021:468 JLINK_WriteReg(R15 (PC), 0x20000108)  returns 0x00 (0000ms, 2137ms total)
T348C 021:468 JLINK_WriteReg(XPSR, 0x01000000)  returns 0x00 (0000ms, 2137ms total)
T348C 021:468 JLINK_WriteReg(MSP, 0x20000800)  returns 0x00 (0000ms, 2137ms total)
T348C 021:468 JLINK_WriteReg(PSP, 0x20000800)  returns 0x00 (0000ms, 2137ms total)
T348C 021:468 JLINK_WriteReg(CFBP, 0x00000000)  returns 0x00 (0000ms, 2137ms total)
T348C 021:468 JLINK_SetBPEx(Addr = 0x20000000, Type = 0xFFFFFFF2)  returns 0x00000009 (0000ms, 2137ms total)
T348C 021:468 JLINK_Go() -- CPU_ReadMem(4 bytes @ 0xE0001000) (0002ms, 2139ms total)
T348C 021:470 JLINK_IsHalted()  returns FALSE (0002ms, 2141ms total)
T348C 021:479 JLINK_IsHalted() -- CPU_ReadMem(2 bytes @ 0x20000000)  returns TRUE (0005ms, 2144ms total)
T348C 021:484 JLINK_ReadReg(R15 (PC))  returns 0x20000000 (0000ms, 2139ms total)
T348C 021:484 JLINK_ClrBPEx(BPHandle = 0x00000009)  returns 0x00 (0000ms, 2139ms total)
T348C 021:484 JLINK_ReadReg(R0)  returns 0x00000000 (0000ms, 2139ms total)
T348C 021:485 JLINK_WriteMem(0x20000180, 0x0280 Bytes, ...) - Data: 88 14 00 20 10 B5 78 48 40 68 77 49 08 60 0B F0 ... -- CPU_WriteMem(640 bytes @ 0x20000180)  returns 0x280 (0004ms, 2143ms total)
T348C 021:489 JLINK_WriteMem(0x20000400, 0x0180 Bytes, ...) - Data: 32 48 00 78 28 B9 00 20 88 70 01 20 31 49 08 72 ... -- CPU_WriteMem(384 bytes @ 0x20000400)  returns 0x180 (0004ms, 2147ms total)
T348C 021:493 JLINK_WriteReg(R0, 0x08000400)  returns 0x00 (0000ms, 2147ms total)
T348C 021:493 JLINK_WriteReg(R1, 0x00000400)  returns 0x00 (0000ms, 2147ms total)
T348C 021:493 JLINK_WriteReg(R2, 0x20000180)  returns 0x00 (0000ms, 2147ms total)
T348C 021:493 JLINK_WriteReg(R3, 0x00000000)  returns 0x00 (0000ms, 2147ms total)
T348C 021:493 JLINK_WriteReg(R4, 0x00000000)  returns 0x00 (0000ms, 2147ms total)
T348C 021:493 JLINK_WriteReg(R5, 0x00000000)  returns 0x00 (0000ms, 2147ms total)
T348C 021:493 JLINK_WriteReg(R6, 0x00000000)  returns 0x00 (0000ms, 2147ms total)
T348C 021:493 JLINK_WriteReg(R7, 0x00000000)  returns 0x00 (0000ms, 2147ms total)
T348C 021:493 JLINK_WriteReg(R8, 0x00000000)  returns 0x00 (0000ms, 2147ms total)
T348C 021:493 JLINK_WriteReg(R9, 0x2000017C)  returns 0x00 (0000ms, 2147ms total)
T348C 021:493 JLINK_WriteReg(R10, 0x00000000)  returns 0x00 (0000ms, 2147ms total)
T348C 021:493 JLINK_WriteReg(R11, 0x00000000)  returns 0x00 (0000ms, 2147ms total)
T348C 021:493 JLINK_WriteReg(R12, 0x00000000)  returns 0x00 (0000ms, 2147ms total)
T348C 021:493 JLINK_WriteReg(R13 (SP), 0x20000800)  returns 0x00 (0000ms, 2147ms total)
T348C 021:493 JLINK_WriteReg(R14, 0x20000001)  returns 0x00 (0000ms, 2147ms total)
T348C 021:493 JLINK_WriteReg(R15 (PC), 0x20000108)  returns 0x00 (0000ms, 2147ms total)
T348C 021:493 JLINK_WriteReg(XPSR, 0x01000000)  returns 0x00 (0000ms, 2147ms total)
T348C 021:493 JLINK_WriteReg(MSP, 0x20000800)  returns 0x00 (0000ms, 2147ms total)
T348C 021:493 JLINK_WriteReg(PSP, 0x20000800)  returns 0x00 (0001ms, 2148ms total)
T348C 021:494 JLINK_WriteReg(CFBP, 0x00000000)  returns 0x00 (0000ms, 2148ms total)
T348C 021:494 JLINK_SetBPEx(Addr = 0x20000000, Type = 0xFFFFFFF2)  returns 0x0000000A (0000ms, 2148ms total)
T348C 021:494 JLINK_Go() -- CPU_ReadMem(4 bytes @ 0xE0001000) (0004ms, 2152ms total)
T348C 021:498 JLINK_IsHalted()  returns FALSE (0001ms, 2153ms total)
T348C 021:501 JLINK_IsHalted()  returns FALSE (0001ms, 2153ms total)
T348C 021:505 JLINK_IsHalted() -- CPU_ReadMem(2 bytes @ 0x20000000)  returns TRUE (0004ms, 2156ms total)
T348C 021:509 JLINK_ReadReg(R15 (PC))  returns 0x20000000 (0000ms, 2152ms total)
T348C 021:509 JLINK_ClrBPEx(BPHandle = 0x0000000A)  returns 0x00 (0000ms, 2152ms total)
T348C 021:509 JLINK_ReadReg(R0)  returns 0x00000000 (0000ms, 2152ms total)
T348C 021:511 JLINK_WriteMem(0x20000180, 0x0280 Bytes, ...) - Data: 04 46 0D 46 16 46 04 F0 01 00 18 B1 31 46 28 46 ... -- CPU_WriteMem(640 bytes @ 0x20000180)  returns 0x280 (0005ms, 2157ms total)
T348C 021:516 JLINK_WriteMem(0x20000400, 0x0180 Bytes, ...) - Data: 05 30 0C 78 60 1C 08 70 36 48 03 55 00 23 0C 78 ... -- CPU_WriteMem(384 bytes @ 0x20000400)  returns 0x180 (0003ms, 2160ms total)
T348C 021:519 JLINK_WriteReg(R0, 0x08000800)  returns 0x00 (0000ms, 2160ms total)
T348C 021:519 JLINK_WriteReg(R1, 0x00000400)  returns 0x00 (0000ms, 2160ms total)
T348C 021:519 JLINK_WriteReg(R2, 0x20000180)  returns 0x00 (0000ms, 2160ms total)
T348C 021:519 JLINK_WriteReg(R3, 0x00000000)  returns 0x00 (0000ms, 2160ms total)
T348C 021:519 JLINK_WriteReg(R4, 0x00000000)  returns 0x00 (0000ms, 2160ms total)
T348C 021:519 JLINK_WriteReg(R5, 0x00000000)  returns 0x00 (0000ms, 2160ms total)
T348C 021:519 JLINK_WriteReg(R6, 0x00000000)  returns 0x00 (0000ms, 2160ms total)
T348C 021:519 JLINK_WriteReg(R7, 0x00000000)  returns 0x00 (0000ms, 2160ms total)
T348C 021:519 JLINK_WriteReg(R8, 0x00000000)  returns 0x00 (0000ms, 2160ms total)
T348C 021:519 JLINK_WriteReg(R9, 0x2000017C)  returns 0x00 (0000ms, 2160ms total)
T348C 021:519 JLINK_WriteReg(R10, 0x00000000)  returns 0x00 (0001ms, 2161ms total)
T348C 021:520 JLINK_WriteReg(R11, 0x00000000)  returns 0x00 (0000ms, 2161ms total)
T348C 021:520 JLINK_WriteReg(R12, 0x00000000)  returns 0x00 (0000ms, 2161ms total)
T348C 021:520 JLINK_WriteReg(R13 (SP), 0x20000800)  returns 0x00 (0000ms, 2161ms total)
T348C 021:520 JLINK_WriteReg(R14, 0x20000001)  returns 0x00 (0000ms, 2161ms total)
T348C 021:520 JLINK_WriteReg(R15 (PC), 0x20000108)  returns 0x00 (0000ms, 2161ms total)
T348C 021:520 JLINK_WriteReg(XPSR, 0x01000000)  returns 0x00 (0000ms, 2161ms total)
T348C 021:520 JLINK_WriteReg(MSP, 0x20000800)  returns 0x00 (0000ms, 2161ms total)
T348C 021:520 JLINK_WriteReg(PSP, 0x20000800)  returns 0x00 (0000ms, 2161ms total)
T348C 021:520 JLINK_WriteReg(CFBP, 0x00000000)  returns 0x00 (0000ms, 2161ms total)
T348C 021:520 JLINK_SetBPEx(Addr = 0x20000000, Type = 0xFFFFFFF2)  returns 0x0000000B (0000ms, 2161ms total)
T348C 021:521 JLINK_Go() -- CPU_ReadMem(4 bytes @ 0xE0001000) (0002ms, 2163ms total)
T348C 021:523 JLINK_IsHalted()  returns FALSE (0001ms, 2164ms total)
T348C 021:526 JLINK_IsHalted()  returns FALSE (0000ms, 2163ms total)
T348C 021:529 JLINK_IsHalted() -- CPU_ReadMem(2 bytes @ 0x20000000)  returns TRUE (0004ms, 2167ms total)
T348C 021:533 JLINK_ReadReg(R15 (PC))  returns 0x20000000 (0000ms, 2163ms total)
T348C 021:533 JLINK_ClrBPEx(BPHandle = 0x0000000B)  returns 0x00 (0000ms, 2163ms total)
T348C 021:533 JLINK_ReadReg(R0)  returns 0x00000000 (0000ms, 2163ms total)
T348C 021:535 JLINK_WriteMem(0x20000180, 0x0280 Bytes, ...) - Data: 60 1C 08 70 D6 48 03 55 4A E1 D7 48 C3 7D 0C 78 ... -- CPU_WriteMem(640 bytes @ 0x20000180)  returns 0x280 (0004ms, 2167ms total)
T348C 021:539 JLINK_WriteMem(0x20000400, 0x0180 Bytes, ...) - Data: 04 30 0C 78 60 1C 08 70 35 48 03 55 9D F8 05 30 ... -- CPU_WriteMem(384 bytes @ 0x20000400)  returns 0x180 (0004ms, 2171ms total)
T348C 021:543 JLINK_WriteReg(R0, 0x08000C00)  returns 0x00 (0000ms, 2171ms total)
T348C 021:543 JLINK_WriteReg(R1, 0x00000400)  returns 0x00 (0000ms, 2171ms total)
T348C 021:543 JLINK_WriteReg(R2, 0x20000180)  returns 0x00 (0000ms, 2171ms total)
T348C 021:543 JLINK_WriteReg(R3, 0x00000000)  returns 0x00 (0000ms, 2171ms total)
T348C 021:543 JLINK_WriteReg(R4, 0x00000000)  returns 0x00 (0000ms, 2171ms total)
T348C 021:543 JLINK_WriteReg(R5, 0x00000000)  returns 0x00 (0000ms, 2171ms total)
T348C 021:543 JLINK_WriteReg(R6, 0x00000000)  returns 0x00 (0000ms, 2171ms total)
T348C 021:543 JLINK_WriteReg(R7, 0x00000000)  returns 0x00 (0000ms, 2171ms total)
T348C 021:543 JLINK_WriteReg(R8, 0x00000000)  returns 0x00 (0000ms, 2171ms total)
T348C 021:543 JLINK_WriteReg(R9, 0x2000017C)  returns 0x00 (0000ms, 2171ms total)
T348C 021:543 JLINK_WriteReg(R10, 0x00000000)  returns 0x00 (0001ms, 2172ms total)
T348C 021:544 JLINK_WriteReg(R11, 0x00000000)  returns 0x00 (0000ms, 2172ms total)
T348C 021:544 JLINK_WriteReg(R12, 0x00000000)  returns 0x00 (0000ms, 2172ms total)
T348C 021:544 JLINK_WriteReg(R13 (SP), 0x20000800)  returns 0x00 (0000ms, 2172ms total)
T348C 021:544 JLINK_WriteReg(R14, 0x20000001)  returns 0x00 (0000ms, 2172ms total)
T348C 021:544 JLINK_WriteReg(R15 (PC), 0x20000108)  returns 0x00 (0000ms, 2172ms total)
T348C 021:544 JLINK_WriteReg(XPSR, 0x01000000)  returns 0x00 (0000ms, 2172ms total)
T348C 021:544 JLINK_WriteReg(MSP, 0x20000800)  returns 0x00 (0000ms, 2172ms total)
T348C 021:544 JLINK_WriteReg(PSP, 0x20000800)  returns 0x00 (0000ms, 2172ms total)
T348C 021:544 JLINK_WriteReg(CFBP, 0x00000000)  returns 0x00 (0000ms, 2172ms total)
T348C 021:544 JLINK_SetBPEx(Addr = 0x20000000, Type = 0xFFFFFFF2)  returns 0x0000000C (0000ms, 2172ms total)
T348C 021:544 JLINK_Go() -- CPU_ReadMem(4 bytes @ 0xE0001000) (0004ms, 2176ms total)
T348C 021:548 JLINK_IsHalted()  returns FALSE (0001ms, 2177ms total)
T348C 021:554 JLINK_IsHalted() -- CPU_ReadMem(2 bytes @ 0x20000000)  returns TRUE (0006ms, 2182ms total)
T348C 021:560 JLINK_ReadReg(R15 (PC))  returns 0x20000000 (0000ms, 2176ms total)
T348C 021:560 JLINK_ClrBPEx(BPHandle = 0x0000000C)  returns 0x00 (0000ms, 2176ms total)
T348C 021:560 JLINK_ReadReg(R0)  returns 0x00000000 (0000ms, 2176ms total)
T348C 021:561 JLINK_WriteMem(0x20000180, 0x0280 Bytes, ...) - Data: 00 EB 84 10 E4 49 08 5C E0 B1 04 EB 44 03 03 EB ... -- CPU_WriteMem(640 bytes @ 0x20000180)  returns 0x280 (0005ms, 2181ms total)
T348C 021:566 JLINK_WriteMem(0x20000400, 0x0180 Bytes, ...) - Data: 07 E0 48 49 09 5C 29 44 CD B2 79 19 CF B2 41 1C ... -- CPU_WriteMem(384 bytes @ 0x20000400)  returns 0x180 (0002ms, 2183ms total)
T348C 021:568 JLINK_WriteReg(R0, 0x08001000)  returns 0x00 (0000ms, 2183ms total)
T348C 021:568 JLINK_WriteReg(R1, 0x00000400)  returns 0x00 (0000ms, 2183ms total)
T348C 021:568 JLINK_WriteReg(R2, 0x20000180)  returns 0x00 (0000ms, 2183ms total)
T348C 021:568 JLINK_WriteReg(R3, 0x00000000)  returns 0x00 (0000ms, 2183ms total)
T348C 021:568 JLINK_WriteReg(R4, 0x00000000)  returns 0x00 (0000ms, 2183ms total)
T348C 021:568 JLINK_WriteReg(R5, 0x00000000)  returns 0x00 (0001ms, 2184ms total)
T348C 021:569 JLINK_WriteReg(R6, 0x00000000)  returns 0x00 (0000ms, 2184ms total)
T348C 021:569 JLINK_WriteReg(R7, 0x00000000)  returns 0x00 (0000ms, 2184ms total)
T348C 021:569 JLINK_WriteReg(R8, 0x00000000)  returns 0x00 (0000ms, 2184ms total)
T348C 021:569 JLINK_WriteReg(R9, 0x2000017C)  returns 0x00 (0000ms, 2184ms total)
T348C 021:569 JLINK_WriteReg(R10, 0x00000000)  returns 0x00 (0000ms, 2184ms total)
T348C 021:569 JLINK_WriteReg(R11, 0x00000000)  returns 0x00 (0000ms, 2184ms total)
T348C 021:569 JLINK_WriteReg(R12, 0x00000000)  returns 0x00 (0000ms, 2184ms total)
T348C 021:569 JLINK_WriteReg(R13 (SP), 0x20000800)  returns 0x00 (0000ms, 2184ms total)
T348C 021:569 JLINK_WriteReg(R14, 0x20000001)  returns 0x00 (0000ms, 2184ms total)
T348C 021:569 JLINK_WriteReg(R15 (PC), 0x20000108)  returns 0x00 (0000ms, 2184ms total)
T348C 021:569 JLINK_WriteReg(XPSR, 0x01000000)  returns 0x00 (0000ms, 2184ms total)
T348C 021:569 JLINK_WriteReg(MSP, 0x20000800)  returns 0x00 (0000ms, 2184ms total)
T348C 021:569 JLINK_WriteReg(PSP, 0x20000800)  returns 0x00 (0001ms, 2185ms total)
T348C 021:570 JLINK_WriteReg(CFBP, 0x00000000)  returns 0x00 (0000ms, 2185ms total)
T348C 021:570 JLINK_SetBPEx(Addr = 0x20000000, Type = 0xFFFFFFF2)  returns 0x0000000D (0000ms, 2185ms total)
T348C 021:570 JLINK_Go() -- CPU_ReadMem(4 bytes @ 0xE0001000) (0003ms, 2188ms total)
T348C 021:573 JLINK_IsHalted()  returns FALSE (0001ms, 2189ms total)
T348C 021:576 JLINK_IsHalted()  returns FALSE (0000ms, 2188ms total)
T348C 021:579 JLINK_IsHalted() -- CPU_ReadMem(2 bytes @ 0x20000000)  returns TRUE (0004ms, 2192ms total)
T348C 021:583 JLINK_ReadReg(R15 (PC))  returns 0x20000000 (0000ms, 2188ms total)
T348C 021:583 JLINK_ClrBPEx(BPHandle = 0x0000000D)  returns 0x00 (0000ms, 2188ms total)
T348C 021:583 JLINK_ReadReg(R0)  returns 0x00000000 (0000ms, 2188ms total)
T348C 021:584 JLINK_WriteMem(0x20000180, 0x0280 Bytes, ...) - Data: A8 1F 81 42 01 D0 BD E8 F8 83 00 20 06 E0 21 5C ... -- CPU_WriteMem(640 bytes @ 0x20000180)  returns 0x280 (0004ms, 2192ms total)
T348C 021:588 JLINK_WriteMem(0x20000400, 0x0180 Bytes, ...) - Data: 84 11 4E 4A 11 44 81 F8 42 00 04 EB 44 00 00 EB ... -- CPU_WriteMem(384 bytes @ 0x20000400)  returns 0x180 (0003ms, 2195ms total)
T348C 021:591 JLINK_WriteReg(R0, 0x08001400)  returns 0x00 (0000ms, 2195ms total)
T348C 021:591 JLINK_WriteReg(R1, 0x00000400)  returns 0x00 (0000ms, 2195ms total)
T348C 021:591 JLINK_WriteReg(R2, 0x20000180)  returns 0x00 (0000ms, 2195ms total)
T348C 021:591 JLINK_WriteReg(R3, 0x00000000)  returns 0x00 (0000ms, 2195ms total)
T348C 021:591 JLINK_WriteReg(R4, 0x00000000)  returns 0x00 (0000ms, 2195ms total)
T348C 021:591 JLINK_WriteReg(R5, 0x00000000)  returns 0x00 (0001ms, 2196ms total)
T348C 021:592 JLINK_WriteReg(R6, 0x00000000)  returns 0x00 (0000ms, 2196ms total)
T348C 021:592 JLINK_WriteReg(R7, 0x00000000)  returns 0x00 (0000ms, 2196ms total)
T348C 021:592 JLINK_WriteReg(R8, 0x00000000)  returns 0x00 (0000ms, 2196ms total)
T348C 021:592 JLINK_WriteReg(R9, 0x2000017C)  returns 0x00 (0000ms, 2196ms total)
T348C 021:592 JLINK_WriteReg(R10, 0x00000000)  returns 0x00 (0000ms, 2196ms total)
T348C 021:592 JLINK_WriteReg(R11, 0x00000000)  returns 0x00 (0000ms, 2196ms total)
T348C 021:592 JLINK_WriteReg(R12, 0x00000000)  returns 0x00 (0000ms, 2196ms total)
T348C 021:592 JLINK_WriteReg(R13 (SP), 0x20000800)  returns 0x00 (0000ms, 2196ms total)
T348C 021:592 JLINK_WriteReg(R14, 0x20000001)  returns 0x00 (0000ms, 2196ms total)
T348C 021:592 JLINK_WriteReg(R15 (PC), 0x20000108)  returns 0x00 (0000ms, 2196ms total)
T348C 021:592 JLINK_WriteReg(XPSR, 0x01000000)  returns 0x00 (0000ms, 2196ms total)
T348C 021:592 JLINK_WriteReg(MSP, 0x20000800)  returns 0x00 (0000ms, 2196ms total)
T348C 021:592 JLINK_WriteReg(PSP, 0x20000800)  returns 0x00 (0000ms, 2196ms total)
T348C 021:592 JLINK_WriteReg(CFBP, 0x00000000)  returns 0x00 (0000ms, 2196ms total)
T348C 021:592 JLINK_SetBPEx(Addr = 0x20000000, Type = 0xFFFFFFF2)  returns 0x0000000E (0000ms, 2196ms total)
T348C 021:592 JLINK_Go() -- CPU_ReadMem(4 bytes @ 0xE0001000) (0004ms, 2200ms total)
T348C 021:596 JLINK_IsHalted()  returns FALSE (0001ms, 2201ms total)
T348C 021:599 JLINK_IsHalted()  returns FALSE (0001ms, 2201ms total)
T348C 021:603 JLINK_IsHalted() -- CPU_ReadMem(2 bytes @ 0x20000000)  returns TRUE (0004ms, 2204ms total)
T348C 021:607 JLINK_ReadReg(R15 (PC))  returns 0x20000000 (0000ms, 2200ms total)
T348C 021:607 JLINK_ClrBPEx(BPHandle = 0x0000000E)  returns 0x00 (0000ms, 2200ms total)
T348C 021:607 JLINK_ReadReg(R0)  returns 0x00000000 (0000ms, 2200ms total)
T348C 021:608 JLINK_WriteMem(0x20000180, 0x0280 Bytes, ...) - Data: 11 44 81 F8 42 00 04 EB 44 00 00 EB 84 10 11 46 ... -- CPU_WriteMem(640 bytes @ 0x20000180)  returns 0x280 (0005ms, 2205ms total)
T348C 021:613 JLINK_WriteMem(0x20000400, 0x0180 Bytes, ...) - Data: 00 EE 10 0A B8 EE C0 0A F3 EE 0E 0A B4 EE E0 0A ... -- CPU_WriteMem(384 bytes @ 0x20000400)  returns 0x180 (0003ms, 2208ms total)
T348C 021:616 JLINK_WriteReg(R0, 0x08001800)  returns 0x00 (0000ms, 2208ms total)
T348C 021:616 JLINK_WriteReg(R1, 0x00000400)  returns 0x00 (0000ms, 2208ms total)
T348C 021:616 JLINK_WriteReg(R2, 0x20000180)  returns 0x00 (0000ms, 2208ms total)
T348C 021:616 JLINK_WriteReg(R3, 0x00000000)  returns 0x00 (0000ms, 2208ms total)
T348C 021:616 JLINK_WriteReg(R4, 0x00000000)  returns 0x00 (0000ms, 2208ms total)
T348C 021:616 JLINK_WriteReg(R5, 0x00000000)  returns 0x00 (0000ms, 2208ms total)
T348C 021:616 JLINK_WriteReg(R6, 0x00000000)  returns 0x00 (0000ms, 2208ms total)
T348C 021:616 JLINK_WriteReg(R7, 0x00000000)  returns 0x00 (0000ms, 2208ms total)
T348C 021:616 JLINK_WriteReg(R8, 0x00000000)  returns 0x00 (0000ms, 2208ms total)
T348C 021:616 JLINK_WriteReg(R9, 0x2000017C)  returns 0x00 (0000ms, 2208ms total)
T348C 021:616 JLINK_WriteReg(R10, 0x00000000)  returns 0x00 (0000ms, 2208ms total)
T348C 021:616 JLINK_WriteReg(R11, 0x00000000)  returns 0x00 (0000ms, 2208ms total)
T348C 021:616 JLINK_WriteReg(R12, 0x00000000)  returns 0x00 (0000ms, 2208ms total)
T348C 021:617 JLINK_WriteReg(R13 (SP), 0x20000800)  returns 0x00 (0000ms, 2208ms total)
T348C 021:617 JLINK_WriteReg(R14, 0x20000001)  returns 0x00 (0000ms, 2208ms total)
T348C 021:617 JLINK_WriteReg(R15 (PC), 0x20000108)  returns 0x00 (0000ms, 2208ms total)
T348C 021:617 JLINK_WriteReg(XPSR, 0x01000000)  returns 0x00 (0000ms, 2208ms total)
T348C 021:617 JLINK_WriteReg(MSP, 0x20000800)  returns 0x00 (0000ms, 2208ms total)
T348C 021:617 JLINK_WriteReg(PSP, 0x20000800)  returns 0x00 (0000ms, 2208ms total)
T348C 021:617 JLINK_WriteReg(CFBP, 0x00000000)  returns 0x00 (0000ms, 2208ms total)
T348C 021:617 JLINK_SetBPEx(Addr = 0x20000000, Type = 0xFFFFFFF2)  returns 0x0000000F (0000ms, 2208ms total)
T348C 021:617 JLINK_Go() -- CPU_ReadMem(4 bytes @ 0xE0001000) (0004ms, 2212ms total)
T348C 021:621 JLINK_IsHalted()  returns FALSE (0001ms, 2213ms total)
T348C 021:626 JLINK_IsHalted() -- CPU_ReadMem(2 bytes @ 0x20000000)  returns TRUE (0005ms, 2217ms total)
T348C 021:631 JLINK_ReadReg(R15 (PC))  returns 0x20000000 (0000ms, 2212ms total)
T348C 021:631 JLINK_ClrBPEx(BPHandle = 0x0000000F)  returns 0x00 (0000ms, 2212ms total)
T348C 021:631 JLINK_ReadReg(R0)  returns 0x00000000 (0000ms, 2212ms total)
T348C 021:633 JLINK_WriteMem(0x20000180, 0x0280 Bytes, ...) - Data: 7F 1C 8F 70 01 27 CF 70 09 E0 00 27 CF 70 0F 88 ... -- CPU_WriteMem(640 bytes @ 0x20000180)  returns 0x280 (0004ms, 2216ms total)
